time	V(n002)	V(n003)
0.000000000000000e+00	2.500522e-06	2.500022e-06
4.932001741164881e-06	2.500522e-06	2.500022e-06
4.940403566945593e-06	1.327817e+00	2.697045e-06
4.947820637837749e-06	3.812170e+00	3.418086e-06
4.954534885834674e-06	5.000000e+00	4.584778e-06
4.974485030671752e-06	5.000000e+00	8.574802e-06
4.994435175508830e-06	5.000000e+00	1.256482e-05
5.014385320345908e-06	5.000000e+00	1.655484e-05
5.034335465182985e-06	5.000000e+00	2.054485e-05
5.054285610020063e-06	5.000000e+00	2.453486e-05
5.074235754857141e-06	5.000000e+00	2.852487e-05
5.094185899694219e-06	5.000000e+00	3.251487e-05
5.500000000000000e-05	4.999998e+00	1.000365e-02
5.550000000000000e-05	1.666665e+00	1.000345e-02
5.650000000000000e-05	-2.000110e-06	1.000305e-02
6.000000000000000e-05	-1.999830e-06	1.000165e-02
1.000000000000000e-04	-1.996631e-06	9.985656e-03
1.013800000000000e-04	-1.996521e-06	9.985104e-03
1.032200000000000e-04	1.270716e+00	1.002960e-02
1.050000000000000e-04	4.999998e+00	1.016165e-02
1.550000000000000e-04	4.999996e+00	2.013134e-02
1.555000000000000e-04	1.666663e+00	2.013094e-02
1.565000000000000e-04	-4.025527e-06	2.013014e-02
1.600000000000000e-04	-4.024963e-06	2.012732e-02
2.000000000000000e-04	-4.018525e-06	2.009512e-02
2.013800000000000e-04	-4.018303e-06	2.009401e-02
2.032200000000000e-04	1.270714e+00	2.013777e-02
2.050000000000000e-04	4.999996e+00	2.026910e-02
2.550000000000000e-04	4.999994e+00	3.021859e-02
2.555000000000000e-04	1.666661e+00	3.021798e-02
2.565000000000001e-04	-6.042855e-06	3.021677e-02
2.600000000000000e-04	-6.042008e-06	3.021254e-02
3.000000000000000e-04	-6.032344e-06	3.016422e-02
3.013800000000000e-04	-6.032011e-06	3.016255e-02
3.032200000000000e-04	1.270712e+00	3.020557e-02
3.050000000000000e-04	4.999994e+00	3.033618e-02
3.550000000000001e-04	4.999992e+00	4.026555e-02
3.555000000000001e-04	1.666659e+00	4.026474e-02
3.565000000000000e-04	-8.052126e-06	4.026313e-02
3.600000000000001e-04	-8.050998e-06	4.025749e-02
4.000000000000000e-04	-8.038121e-06	4.019310e-02
4.013800000000000e-04	-8.037677e-06	4.019089e-02
4.032200000000000e-04	1.270710e+00	4.023316e-02
4.050000000000000e-04	4.999992e+00	4.036306e-02
4.550000000000001e-04	4.999990e+00	5.027238e-02
4.555000000000001e-04	1.666657e+00	5.027138e-02
4.565000000000000e-04	-1.005337e-05	5.026937e-02
4.600000000000001e-04	-1.005196e-05	5.026232e-02
5.000000000000000e-04	-1.003589e-05	5.018194e-02
5.013799999999999e-04	-1.003533e-05	5.017916e-02
5.032200000000000e-04	1.270708e+00	5.022071e-02
5.050000000000000e-04	4.999990e+00	5.034989e-02
5.550000000000000e-04	4.999988e+00	6.023926e-02
5.555000000000000e-04	1.666655e+00	6.023805e-02
5.565000000000000e-04	-1.204663e-05	6.023564e-02
5.600000000000001e-04	-1.204494e-05	6.022720e-02
6.000000000000001e-04	-1.202568e-05	6.013088e-02
6.013799999999999e-04	-1.202501e-05	6.012756e-02
6.032199999999996e-04	1.270706e+00	6.016837e-02
6.050000000000001e-04	4.999988e+00	6.029684e-02
6.550000000000001e-04	4.999986e+00	7.016633e-02
6.555000000000000e-04	1.666653e+00	7.016492e-02
6.565000000000001e-04	-1.403192e-05	7.016211e-02
6.600000000000001e-04	-1.402996e-05	7.015228e-02
7.000000000000001e-04	-1.400752e-05	7.004008e-02
7.013800000000000e-04	-1.400674e-05	7.003622e-02
7.032199999999998e-04	1.270704e+00	7.007630e-02
7.050000000000000e-04	4.999986e+00	7.020407e-02
7.550000000000000e-04	4.999984e+00	8.005375e-02
7.555000000000000e-04	1.666651e+00	8.005214e-02
7.565000000000000e-04	-1.600929e-05	8.004894e-02
7.600000000000000e-04	-1.600705e-05	8.003774e-02
8.000000000000000e-04	-1.598144e-05	7.990972e-02
8.013799999999999e-04	-1.598056e-05	7.990531e-02
8.032199999999996e-04	1.270702e+00	7.994466e-02
8.050000000000001e-04	4.999984e+00	8.007173e-02
8.550000000000001e-04	4.999982e+00	8.990169e-02
8.555000000000000e-04	1.666649e+00	8.989988e-02
8.565000000000001e-04	-1.797876e-05	8.989629e-02
8.600000000000001e-04	-1.797624e-05	8.988370e-02
9.000000000000001e-04	-1.794749e-05	8.973994e-02
9.013799999999999e-04	-1.794650e-05	8.973499e-02
9.032199999999996e-04	1.270700e+00	8.977362e-02
9.050000000000001e-04	4.999982e+00	8.989999e-02
9.550000000000001e-04	4.999980e+00	9.971029e-02
9.555000000000001e-04	1.666647e+00	9.970830e-02
9.565000000000001e-04	-1.994036e-05	9.970431e-02
9.600000000000001e-04	-1.993757e-05	9.969035e-02
1.000000000000000e-03	-1.990568e-05	9.953091e-02
1.001380000000000e-03	-1.990458e-05	9.952541e-02
1.003219999999999e-03	1.270698e+00	9.956332e-02
1.005000000000000e-03	4.999980e+00	9.968898e-02
1.055000000000000e-03	4.999978e+00	1.094797e-01
1.055500000000000e-03	1.666645e+00	1.094775e-01
1.056500000000000e-03	-2.189413e-05	1.094732e-01
1.060000000000000e-03	-2.189107e-05	1.094578e-01
1.100000000000000e-03	-2.185605e-05	1.092828e-01
1.101380000000000e-03	-2.185485e-05	1.092767e-01
1.103220000000000e-03	1.270696e+00	1.093139e-01
1.105000000000000e-03	4.999978e+00	1.094389e-01
1.155000000000000e-03	4.999976e+00	1.192102e-01
1.155500000000000e-03	1.666643e+00	1.192078e-01
1.156500000000000e-03	-2.384010e-05	1.192030e-01
1.160000000000000e-03	-2.383676e-05	1.191863e-01
1.200000000000000e-03	-2.379864e-05	1.189957e-01
1.201380000000000e-03	-2.379732e-05	1.189891e-01
1.203220000000000e-03	1.270694e+00	1.190256e-01
1.205000000000000e-03	4.999976e+00	1.191499e-01
1.255000000000000e-03	4.999974e+00	1.289017e-01
1.255500000000000e-03	1.666641e+00	1.288991e-01
1.256500000000000e-03	-2.577830e-05	1.288940e-01
1.260000000000000e-03	-2.577469e-05	1.288759e-01
1.300000000000000e-03	-2.573346e-05	1.286698e-01
1.301380000000000e-03	-2.573204e-05	1.286627e-01
1.303220000000000e-03	1.270692e+00	1.286985e-01
1.305000000000000e-03	4.999974e+00	1.288221e-01
1.355000000000000e-03	4.999972e+00	1.385546e-01
1.355500000000000e-03	1.666639e+00	1.385518e-01
1.356500000000000e-03	-2.770875e-05	1.385463e-01
1.360000000000000e-03	-2.770487e-05	1.385269e-01
1.400000000000000e-03	-2.766056e-05	1.383053e-01
1.401380000000000e-03	-2.765903e-05	1.382977e-01
1.403220000000000e-03	1.270691e+00	1.383327e-01
1.405000000000000e-03	4.999972e+00	1.384556e-01
1.455000000000000e-03	4.999970e+00	1.481689e-01
1.455500000000000e-03	1.666637e+00	1.481659e-01
1.456500000000000e-03	-2.963150e-05	1.481600e-01
1.460000000000000e-03	-2.962735e-05	1.481392e-01
1.500000000000000e-03	-2.957996e-05	1.479023e-01
1.501380000000000e-03	-2.957833e-05	1.478941e-01
1.503220000000000e-03	1.270689e+00	1.479285e-01
1.505000000000000e-03	4.999970e+00	1.480507e-01
1.555000000000000e-03	4.999969e+00	1.577448e-01
1.555500000000000e-03	1.666635e+00	1.577416e-01
1.556500000000000e-03	-3.154657e-05	1.577353e-01
1.560000000000000e-03	-3.154215e-05	1.577132e-01
1.600000000000000e-03	-3.149170e-05	1.574610e-01
1.601380000000000e-03	-3.148996e-05	1.574523e-01
1.603220000000000e-03	1.270687e+00	1.574859e-01
1.605000000000000e-03	4.999969e+00	1.576075e-01
1.655000000000000e-03	4.999967e+00	1.672825e-01
1.655500000000000e-03	1.666633e+00	1.672791e-01
1.656500000000000e-03	-3.345398e-05	1.672724e-01
1.660000000000000e-03	-3.344930e-05	1.672490e-01
1.700000000000000e-03	-3.339580e-05	1.669815e-01
1.701380000000000e-03	-3.339396e-05	1.669723e-01
1.703220000000000e-03	1.270685e+00	1.670052e-01
1.705000000000000e-03	4.999967e+00	1.671261e-01
1.755000000000000e-03	4.999965e+00	1.767820e-01
1.755500000000000e-03	1.666631e+00	1.767785e-01
1.756500000000000e-03	-3.535379e-05	1.767714e-01
1.760000000000000e-03	-3.534884e-05	1.767467e-01
1.800000000000000e-03	-3.529230e-05	1.764640e-01
1.801380000000000e-03	-3.529035e-05	1.764542e-01
1.803220000000000e-03	1.270683e+00	1.764865e-01
1.805000000000000e-03	4.999965e+00	1.766067e-01
1.855000000000000e-03	4.999963e+00	1.862437e-01
1.855500000000000e-03	1.666629e+00	1.862400e-01
1.856500000000000e-03	-3.724600e-05	1.862325e-01
1.860000000000000e-03	-3.724078e-05	1.862064e-01
1.900000000000000e-03	-3.718122e-05	1.859086e-01
1.901380000000000e-03	-3.717917e-05	1.858983e-01
1.903220000000000e-03	1.270681e+00	1.859299e-01
1.905000000000000e-03	4.999963e+00	1.860494e-01
1.955000000000000e-03	4.999961e+00	1.956675e-01
1.955500000000000e-03	1.666628e+00	1.956636e-01
1.956500000000000e-03	-3.913066e-05	1.956558e-01
1.960000000000000e-03	-3.912518e-05	1.956284e-01
2.000000000000000e-03	-3.906260e-05	1.953155e-01
2.001380000000001e-03	-3.906045e-05	1.953047e-01
2.003220000000002e-03	1.270679e+00	1.953356e-01
2.005000000000000e-03	4.999961e+00	1.954544e-01
2.055000000000000e-03	4.999959e+00	2.050538e-01
2.055500000000000e-03	1.666626e+00	2.050497e-01
2.056500000000000e-03	-4.100779e-05	2.050415e-01
2.060000000000000e-03	-4.100205e-05	2.050127e-01
2.100000000000000e-03	-4.093647e-05	2.046849e-01
2.101380000000001e-03	-4.093421e-05	2.046736e-01
2.103220000000002e-03	1.270677e+00	2.047037e-01
2.105000000000000e-03	4.999959e+00	2.048219e-01
2.155000000000000e-03	4.999957e+00	2.144025e-01
2.155500000000000e-03	1.666624e+00	2.143982e-01
2.156500000000000e-03	-4.287743e-05	2.143896e-01
2.160000000000000e-03	-4.287142e-05	2.143596e-01
2.200000000000000e-03	-4.280285e-05	2.140168e-01
2.201380000000001e-03	-4.280049e-05	2.140049e-01
2.203220000000002e-03	1.270675e+00	2.140344e-01
2.205000000000000e-03	4.999957e+00	2.141519e-01
2.255000000000000e-03	4.999955e+00	2.237139e-01
2.255500000000000e-03	1.666622e+00	2.237094e-01
2.256500000000000e-03	-4.473959e-05	2.237005e-01
2.260000000000000e-03	-4.473333e-05	2.236692e-01
2.300000000000000e-03	-4.466179e-05	2.233114e-01
2.301380000000001e-03	-4.465932e-05	2.232991e-01
2.303220000000002e-03	1.270674e+00	2.233279e-01
2.305000000000000e-03	4.999955e+00	2.234447e-01
2.355000000000000e-03	4.999953e+00	2.329881e-01
2.355500000000000e-03	1.666620e+00	2.329835e-01
2.356500000000000e-03	-4.659433e-05	2.329741e-01
2.360000000000000e-03	-4.658780e-05	2.329415e-01
2.400000000000000e-03	-4.651329e-05	2.325689e-01
2.401380000000001e-03	-4.651072e-05	2.325561e-01
2.403220000000002e-03	1.270672e+00	2.325842e-01
2.405000000000000e-03	4.999953e+00	2.327004e-01
2.455000000000000e-03	4.999951e+00	2.422253e-01
2.455500000000000e-03	1.666618e+00	2.422204e-01
2.456500000000000e-03	-4.844165e-05	2.422108e-01
2.460000000000000e-03	-4.843487e-05	2.421768e-01
2.500000000000000e-03	-4.835740e-05	2.417895e-01
2.501380000000001e-03	-4.835473e-05	2.417762e-01
2.503220000000002e-03	1.270670e+00	2.418036e-01
2.505000000000000e-03	4.999952e+00	2.419191e-01
2.555000000000000e-03	4.999950e+00	2.514256e-01
2.555500000000000e-03	1.666616e+00	2.514206e-01
2.556500000000000e-03	-5.028160e-05	2.514105e-01
2.560000000000000e-03	-5.027456e-05	2.513753e-01
2.600000000000000e-03	-5.019415e-05	2.509733e-01
2.601380000000001e-03	-5.019138e-05	2.509594e-01
2.603220000000002e-03	1.270668e+00	2.509862e-01
2.605000000000000e-03	4.999950e+00	2.511010e-01
2.655000000000000e-03	4.999948e+00	2.605891e-01
2.655500000000000e-03	1.666615e+00	2.605839e-01
2.656500000000000e-03	-5.211420e-05	2.605735e-01
2.660000000000000e-03	-5.210690e-05	2.605370e-01
2.700000000000000e-03	-5.202356e-05	2.601203e-01
2.701380000000001e-03	-5.202069e-05	2.601059e-01
2.703220000000002e-03	1.270666e+00	2.601320e-01
2.705000000000000e-03	4.999948e+00	2.602463e-01
2.755000000000000e-03	4.999946e+00	2.697161e-01
2.755500000000000e-03	1.666613e+00	2.697107e-01
2.756500000000000e-03	-5.393948e-05	2.696999e-01
2.760000000000000e-03	-5.393193e-05	2.696621e-01
2.800000000000000e-03	-5.384567e-05	2.692308e-01
2.801380000000001e-03	-5.384269e-05	2.692160e-01
2.803220000000002e-03	1.270664e+00	2.692414e-01
2.805000000000000e-03	4.999946e+00	2.693550e-01
2.855000000000000e-03	4.999944e+00	2.788066e-01
2.855500000000000e-03	1.666611e+00	2.788010e-01
2.856500000000000e-03	-5.575747e-05	2.787898e-01
2.860000000000000e-03	-5.574966e-05	2.787508e-01
2.900000000000000e-03	-5.566050e-05	2.783050e-01
2.901380000000001e-03	-5.565742e-05	2.782896e-01
2.903220000000002e-03	1.270663e+00	2.783144e-01
2.905000000000000e-03	4.999944e+00	2.784273e-01
2.955000000000000e-03	4.999942e+00	2.878608e-01
2.955500000000000e-03	1.666609e+00	2.878550e-01
2.956500000000000e-03	-5.756820e-05	2.878435e-01
2.960000000000000e-03	-5.756014e-05	2.878032e-01
3.000000000000000e-03	-5.746808e-05	2.873429e-01
3.001380000000001e-03	-5.746491e-05	2.873270e-01
3.003220000000002e-03	1.270661e+00	2.873511e-01
3.005000000000000e-03	4.999942e+00	2.874634e-01
3.055000000000000e-03	4.999940e+00	2.968788e-01
3.055500000000000e-03	1.666607e+00	2.968729e-01
3.056500000000000e-03	-5.937170e-05	2.968610e-01
3.060000000000000e-03	-5.936338e-05	2.968194e-01
3.100000000000000e-03	-5.926844e-05	2.963447e-01
3.101380000000001e-03	-5.926517e-05	2.963283e-01
3.103220000000002e-03	1.270659e+00	2.963518e-01
3.105000000000000e-03	4.999941e+00	2.964634e-01
3.155000000000000e-03	4.999939e+00	3.058608e-01
3.155500000000000e-03	1.666606e+00	3.058547e-01
3.156500000000000e-03	-6.116800e-05	3.058425e-01
3.160000000000000e-03	-6.115943e-05	3.057997e-01
3.200000000000000e-03	-6.106161e-05	3.053106e-01
3.201380000000001e-03	-6.105824e-05	3.052937e-01
3.203220000000002e-03	1.270657e+00	3.053165e-01
3.205000000000000e-03	4.999939e+00	3.054275e-01
3.255000000000000e-03	4.999937e+00	3.148070e-01
3.255500000000000e-03	1.666604e+00	3.148007e-01
3.256500000000000e-03	-6.295712e-05	3.147881e-01
3.260000000000000e-03	-6.294830e-05	3.147440e-01
3.300000000000000e-03	-6.284763e-05	3.142406e-01
3.301380000000001e-03	-6.284416e-05	3.142233e-01
3.303220000000002e-03	1.270655e+00	3.142454e-01
3.305000000000000e-03	4.999937e+00	3.143558e-01
3.355000000000000e-03	4.999935e+00	3.237174e-01
3.355500000000000e-03	1.666602e+00	3.237109e-01
3.356500000000000e-03	-6.473910e-05	3.236980e-01
3.360000000000000e-03	-6.473003e-05	3.236527e-01
3.400000000000000e-03	-6.462650e-05	3.231350e-01
3.401380000000000e-03	-6.462294e-05	3.231172e-01
3.403220000000001e-03	1.270654e+00	3.231386e-01
3.405000000000000e-03	4.999935e+00	3.232484e-01
3.455000000000000e-03	4.999933e+00	3.325923e-01
3.455500000000000e-03	1.666600e+00	3.325856e-01
3.456500000000000e-03	-6.651396e-05	3.325723e-01
3.460000000000000e-03	-6.650465e-05	3.325257e-01
3.500000000000000e-03	-6.639828e-05	3.319939e-01
3.501380000000001e-03	-6.639461e-05	3.319756e-01
3.503220000000002e-03	1.270652e+00	3.319964e-01
3.505000000000000e-03	4.999934e+00	3.321055e-01
3.555000000000000e-03	4.999932e+00	3.414317e-01
3.555500000000000e-03	1.666598e+00	3.414248e-01
3.556500000000000e-03	-6.828173e-05	3.414112e-01
3.560000000000000e-03	-6.827217e-05	3.413634e-01
3.600000000000000e-03	-6.816298e-05	3.408174e-01
3.601380000000000e-03	-6.815921e-05	3.407986e-01
3.603220000000001e-03	1.270650e+00	3.408187e-01
3.605000000000000e-03	4.999932e+00	3.409272e-01
3.655000000000000e-03	4.999930e+00	3.502358e-01
3.655500000000000e-03	1.666597e+00	3.502288e-01
3.656500000000000e-03	-7.004245e-05	3.502147e-01
3.660000000000000e-03	-7.003264e-05	3.501657e-01
3.700000000000000e-03	-6.992063e-05	3.496056e-01
3.701380000000001e-03	-6.991677e-05	3.495863e-01
3.703220000000002e-03	1.270648e+00	3.496059e-01
3.705000000000000e-03	4.999930e+00	3.497137e-01
3.755000000000000e-03	4.999928e+00	3.590047e-01
3.755500000000000e-03	1.666595e+00	3.589975e-01
3.756500000000000e-03	-7.179613e-05	3.589832e-01
3.760000000000000e-03	-7.178607e-05	3.589329e-01
3.800000000000000e-03	-7.167126e-05	3.583588e-01
3.801380000000001e-03	-7.166730e-05	3.583390e-01
3.803220000000002e-03	1.270647e+00	3.583579e-01
3.805000000000000e-03	4.999928e+00	3.584651e-01
3.855000000000000e-03	4.999927e+00	3.677386e-01
3.855500000000000e-03	1.666593e+00	3.677313e-01
3.856500000000000e-03	-7.354281e-05	3.677166e-01
3.860000000000000e-03	-7.353251e-05	3.676651e-01
3.900000000000000e-03	-7.341491e-05	3.670770e-01
3.901380000000001e-03	-7.341085e-05	3.670568e-01
3.903220000000002e-03	1.270645e+00	3.670750e-01
3.905000000000000e-03	4.999927e+00	3.671816e-01
3.955000000000000e-03	4.999925e+00	3.764377e-01
3.955500000000000e-03	1.666591e+00	3.764301e-01
3.956500000000000e-03	-7.528251e-05	3.764151e-01
3.960000000000000e-03	-7.527197e-05	3.763624e-01
4.000000000000000e-03	-7.515158e-05	3.757604e-01
4.001380000000000e-03	-7.514743e-05	3.757397e-01
4.003219999999998e-03	1.270643e+00	3.757572e-01
4.005000000000000e-03	4.999925e+00	3.758632e-01
4.055000000000000e-03	4.999923e+00	3.851019e-01
4.055499999999999e-03	1.666590e+00	3.850943e-01
4.056499999999999e-03	-7.701527e-05	3.850788e-01
4.059999999999999e-03	-7.700448e-05	3.850249e-01
4.100000000000000e-03	-7.688133e-05	3.844091e-01
4.101380000000000e-03	-7.687708e-05	3.843879e-01
4.103219999999999e-03	1.270641e+00	3.844048e-01
4.105000000000000e-03	4.999923e+00	3.845102e-01
4.155000000000000e-03	4.999921e+00	3.937317e-01
4.155499999999999e-03	1.666588e+00	3.937238e-01
4.156500000000000e-03	-7.874110e-05	3.937080e-01
4.160000000000000e-03	-7.873007e-05	3.936529e-01
4.200000000000001e-03	-7.860416e-05	3.930233e-01
4.201380000000000e-03	-7.859982e-05	3.930016e-01
4.203220000000000e-03	1.270640e+00	3.930179e-01
4.205000000000000e-03	4.999921e+00	3.931226e-01
4.255000000000000e-03	4.999919e+00	4.023269e-01
4.255500000000000e-03	1.666586e+00	4.023188e-01
4.256500000000000e-03	-8.046005e-05	4.023027e-01
4.260000000000000e-03	-8.044878e-05	4.022464e-01
4.300000000000001e-03	-8.032011e-05	4.016030e-01
4.301380000000000e-03	-8.031567e-05	4.015809e-01
4.303220000000000e-03	1.270638e+00	4.015965e-01
4.305000000000000e-03	4.999920e+00	4.017007e-01
4.354999999999999e-03	4.999918e+00	4.108878e-01
4.355499999999999e-03	1.666584e+00	4.108796e-01
4.356499999999999e-03	-8.217213e-05	4.108631e-01
4.359999999999999e-03	-8.216062e-05	4.108056e-01
4.400000000000000e-03	-8.202921e-05	4.101486e-01
4.401380000000000e-03	-8.202469e-05	4.101259e-01
4.403219999999999e-03	1.270636e+00	4.101410e-01
4.405000000000000e-03	4.999918e+00	4.102445e-01
4.455000000000000e-03	4.999916e+00	4.194145e-01
4.455499999999999e-03	1.666583e+00	4.194061e-01
4.456500000000000e-03	-8.387736e-05	4.193893e-01
4.460000000000000e-03	-8.386562e-05	4.193306e-01
4.500000000000001e-03	-8.373149e-05	4.186599e-01
4.501380000000000e-03	-8.372687e-05	4.186368e-01
4.503220000000000e-03	1.270634e+00	4.186512e-01
4.505000000000000e-03	4.999916e+00	4.187542e-01
4.555000000000000e-03	4.999915e+00	4.279072e-01
4.555500000000000e-03	1.666581e+00	4.278986e-01
4.556500000000000e-03	-8.557580e-05	4.278815e-01
4.560000000000000e-03	-8.556381e-05	4.278216e-01
4.600000000000001e-03	-8.542697e-05	4.271373e-01
4.601380000000000e-03	-8.542225e-05	4.271137e-01
4.603220000000000e-03	1.270633e+00	4.271275e-01
4.605000000000000e-03	4.999915e+00	4.272299e-01
4.654999999999999e-03	4.999913e+00	4.363659e-01
4.655499999999999e-03	1.666579e+00	4.363572e-01
4.656499999999999e-03	-8.726744e-05	4.363397e-01
4.659999999999999e-03	-8.725523e-05	4.362786e-01
4.700000000000000e-03	-8.711567e-05	4.355808e-01
4.701380000000000e-03	-8.711086e-05	4.355568e-01
4.703219999999999e-03	1.270631e+00	4.355700e-01
4.705000000000000e-03	4.999913e+00	4.356717e-01
4.755000000000000e-03	4.999911e+00	4.447909e-01
4.755499999999999e-03	1.666578e+00	4.447820e-01
4.756499999999999e-03	-8.895234e-05	4.447642e-01
4.759999999999999e-03	-8.893988e-05	4.447019e-01
4.800000000000000e-03	-8.879763e-05	4.439907e-01
4.801380000000000e-03	-8.879273e-05	4.439662e-01
4.803220000000000e-03	1.270630e+00	4.439787e-01
4.805000000000000e-03	4.999911e+00	4.440798e-01
4.855000000000000e-03	4.999909e+00	4.531822e-01
4.855500000000000e-03	1.666576e+00	4.531731e-01
4.856500000000000e-03	-9.063050e-05	4.531550e-01
4.860000000000000e-03	-9.061781e-05	4.530916e-01
4.900000000000001e-03	-9.047288e-05	4.523669e-01
4.901380000000000e-03	-9.046788e-05	4.523419e-01
4.903220000000000e-03	1.270628e+00	4.523538e-01
4.905000000000000e-03	4.999909e+00	4.524544e-01
4.954999999999999e-03	4.999907e+00	4.615400e-01
4.955499999999999e-03	1.666574e+00	4.615308e-01
4.956499999999999e-03	-9.230196e-05	4.615123e-01
4.959999999999999e-03	-9.228904e-05	4.614477e-01
5.000000000000000e-03	-9.214143e-05	4.607097e-01
5.001380000000000e-03	-9.213635e-05	4.606842e-01
5.003219999999999e-03	1.270626e+00	4.606955e-01
5.005000000000000e-03	4.999908e+00	4.607955e-01
